
**** 11/06/15 14:19:36 ****** PSpice Lite (October 2012) ****** ID# 10813 ****

 ** Profile: "SCHEMATIC1-sim"  [ C:\USERS\LUISALFONSO\BOX SYNC\UNIVERSIDAD\5_SEMESTRE\Control_Ventana-Lluvia-PSpiceFiles\SCHEMATIC1\s


 ****     CIRCUIT DESCRIPTION


******************************************************************************




** Creating circuit file "sim.cir" 
** WARNING: THIS AUTOMATICALLY GENERATED FILE MAY BE OVERWRITTEN BY SUBSEQUENT SIMULATIONS

*Libraries: 
* Profile Libraries :
* Local Libraries :
* From [PSPICE NETLIST] section of C:\Users\LUISALFONSO\AppData\Roaming\SPB_16.6\cdssetup\OrCAD_PSpice/16.6.0/PSpice.ini file:
.lib "nomd.lib" 

*Analysis directives: 
.TRAN  0 10ms 0 
.OPTIONS ADVCONV
.PROBE64 V(alias(*)) I(alias(*)) W(alias(*)) D(alias(*)) NOISE(alias(*)) 
.INC "..\SCHEMATIC1.net" 



**** INCLUDING SCHEMATIC1.net ****
* source CONTROL_VENTANA-LLUVIA
V_V1         N00104 0 5Vdc
X_U1         N00428 0 N00112 N00213 N00104 Relay_Spdt_Phy PARAMS:
+ R_coil=10
+ L_coil=5mH
+ R_open=100MEG
+ R_close=.05
+ turns=100
+ arm_mass=0.5
+ spr=40
+ minp=1
+ maxp=5
+ drag=1
+ lim_k=1e6
+ damping=1e3
R_R1         N00112 0  1k TC=0,0 
R_R2         N00213 0  1k TC=0,0 
X_U4         0 N00428 Sw_tOpen PARAMS: tOpen=0.005 ttran=1u Rclosed=0.01
+  Ropen=1Meg

**** RESUMING sim.cir ****
.END

**** 11/06/15 14:19:36 ****** PSpice Lite (October 2012) ****** ID# 10813 ****

 ** Profile: "SCHEMATIC1-sim"  [ C:\USERS\LUISALFONSO\BOX SYNC\UNIVERSIDAD\5_SEMESTRE\Control_Ventana-Lluvia-PSpiceFiles\SCHEMATIC1\s


 ****     Voltage Controlled Switch MODEL PARAMETERS


******************************************************************************




               X_U1.smod_no    X_U1.smod_nc    X_U4.Smod       
         RON     .05             .05             .01         
        ROFF  100.000000E+06  100.000000E+06    1.000000E+06 
         VON    1               0               1            
        VOFF     .99             .01            0            


**** 11/06/15 14:19:36 ****** PSpice Lite (October 2012) ****** ID# 10813 ****

 ** Profile: "SCHEMATIC1-sim"  [ C:\USERS\LUISALFONSO\BOX SYNC\UNIVERSIDAD\5_SEMESTRE\Control_Ventana-Lluvia-PSpiceFiles\SCHEMATIC1\s


 ****     INITIAL TRANSIENT SOLUTION       TEMPERATURE =   27.000 DEG C


******************************************************************************



 NODE   VOLTAGE     NODE   VOLTAGE     NODE   VOLTAGE     NODE   VOLTAGE


(N00104)    5.0000 (N00112) 50.00E-06 (N00213)    4.9998 (N00428)    0.0000     

(X_U4.3)    1.0000 (X_U1.a1)    0.0000                   (X_U1.a2)    0.0000    

(X_U1.v0)    0.0000                   (X_U1.dis)-40.00E-06                      

(X_U1.vel)-40.12E-15                  




    VOLTAGE SOURCE CURRENTS
    NAME         CURRENT

    V_V1        -5.000E-03
    X_U1.v_winding   0.000E+00
    X_U4.V1     -1.000E-12

    TOTAL POWER DISSIPATION   2.50E-02  WATTS



          JOB CONCLUDED

**** 11/06/15 14:19:36 ****** PSpice Lite (October 2012) ****** ID# 10813 ****

 ** Profile: "SCHEMATIC1-sim"  [ C:\USERS\LUISALFONSO\BOX SYNC\UNIVERSIDAD\5_SEMESTRE\Control_Ventana-Lluvia-PSpiceFiles\SCHEMATIC1\s


 ****     JOB STATISTICS SUMMARY


******************************************************************************



  Total job time (using Solver 1)   =         .05
